
T1A04 000:015 SEGGER J-Link V4.68a Log File (0000ms, 0015ms total)
T1A04 000:015 DLL Compiled: Apr 12 2013 13:26:50 (0000ms, 0015ms total)
T1A04 000:015 Logging started @ 2015-04-21 20:53 (0000ms, 0015ms total)
T1A04 000:015 JLINK_SetWarnOutHandler(...) (0000ms, 0015ms total)
T1A04 000:015 JLINK_OpenEx(...)
Firmware: J-Link ARM V7 compiled Jun 20 2012 19:45:53
Hardware: V7.00
S/N: 57000442
Feature(s): RDI, FlashBP, FlashDL, JFlash, GDB  returns O.K. (0010ms, 0025ms total)
T1A04 000:025 JLINK_SetErrorOutHandler(...) (0000ms, 0025ms total)
T1A04 000:025 JLINK_ExecCommand("ProjectFile = "C:\Game_in_1986BE92QI\JLinkSettings.ini"", ...)
                JLINK_AddMirrorAreaEx(Addr = 0x00000000, Size = 0x00000000) (0000ms, 0000ms total)
              Device "UNSPECIFIED" selected (0 KB flash, 0 KB RAM).  returns 0x00 (0001ms, 0026ms total)
T1A04 000:026 JLINK_ExecCommand("Device = MDR1986BE92", ...)
                JLINK_AddMirrorAreaEx(Addr = 0x00000000, Size = 0x00000000) (0000ms, 0000ms total)
              Device "UNSPECIFIED" selected (0 KB flash, 0 KB RAM).  returns 0x00 (0000ms, 0026ms total)
T1A04 000:026 JLINK_ExecCommand("DisableConnectionTimeout", ...)  returns 0x00 (0000ms, 0026ms total)
T1A04 000:026 JLINK_GetHardwareVersion()  returns 0x11170 (0000ms, 0026ms total)
T1A04 000:026 JLINK_GetDLLVersion()  returns 46801 (0000ms, 0026ms total)
T1A04 000:026 JLINK_GetFirmwareString(...) (0000ms, 0026ms total)
T1A04 000:027 JLINK_GetDLLVersion()  returns 46801 (0000ms, 0026ms total)
T1A04 000:027 JLINK_GetCompileDateTime() (0000ms, 0026ms total)
T1A04 000:027 JLINK_GetFirmwareString(...) (0000ms, 0026ms total)
T1A04 000:027 JLINK_GetHardwareVersion()  returns 0x11170 (0000ms, 0026ms total)
T1A04 000:028 JLINK_TIF_Select(JLINKARM_TIF_SWD)  returns 0x00 (0002ms, 0028ms total)
T1A04 000:030 JLINK_SetSpeed(1000) (0000ms, 0028ms total)
T1A04 000:030 JLINK_GetId() >0x108 TIF>Found SWD-DP with ID 0x2BA01477 >0x0D TIF> >0x21 TIF> >0x0D TIF> >0x28 TIF> >0x0D TIF> >0x28 TIF> >0x0D TIF> >0x21 TIF> >0x0D TIF> >0x21 TIF> >0x0D TIF> >0x28 TIF> >0x0D TIF> >0x21 TIF> >0x0D TIF> >0x21 TIF> >0x0D TIF> >0x21 TIF> >0x0D TIF> >0x21 TIF> >0x0D TIF> >0x28 TIF> >0x0D TIF> >0x21 TIF> >0x0D TIF> >0x28 TIF> >0x0D TIF> >0x28 TIF> >0x0D TIF> >0x21 TIF> >0x0D TIF> >0x21 TIF> >0x0D TIF> >0x28 TIF> >0x0D TIF> >0x21 TIF> >0x0D TIF> >0x21 TIF> >0x0D TIF>
 >0x28 TIF> >0x0D TIF> >0x28 TIF> >0x0D TIF> >0x28 TIF> >0x0D TIF> >0x21 TIF> >0x0D TIF> >0x21 TIF> >0x0D TIF> >0x28 TIF> >0x0D TIF> >0x28 TIF> >0x0D TIF> >0x28 TIF> >0x0D TIF> >0x21 TIF> >0x0D TIF> >0x21 TIF> >0x0D TIF> >0x21 TIF>TPIU fitted. >0x0D TIF> >0x28 TIF> >0x0D TIF> >0x21 TIF> >0x0D TIF> >0x21 TIF> >0x0D TIF> >0x28 TIF> >0x0D TIF> >0x21 TIF> >0x0D TIF> >0x21 TIF>FPUnit: 6 code (BP) slots and 2 literal slots >0x0D TIF> >0x28 TIF> >0x0D TIF> >0x21 TIF> >0x0D TIF> >0x21 TIF> >0x0D TIF> >0x28 TIF>
 >0x0D TIF> >0x21 TIF> >0x0D TIF> >0x21 TIF> >0x0D TIF> >0x28 TIF> >0x0D TIF> >0x21 TIF> >0x0D TIF> >0x21 TIF> >0x0D TIF> >0x28 TIF> >0x0D TIF> >0x21 TIF> >0x0D TIF> >0x21 TIF>Found Cortex-M3 r2p0, Little endian. >0x0D TIF> >0x28 TIF> >0x0D TIF> >0x21 TIF>  returns 0x2BA01477 (0053ms, 0081ms total)
T1A04 000:083 JLINK_GetDLLVersion()  returns 46801 (0000ms, 0081ms total)
T1A04 000:083 JLINK_CORE_GetFound()  returns 0x30000FF (0000ms, 0081ms total)
T1A04 000:083 JLINK_ReadMem (0xE00FF000, 0x0020 Bytes, ...) -- CPU is running -- CPU_ReadMem(32 bytes @ 0xE00FF000) -- Data:  03 F0 F0 FF 03 20 F0 FF 03 30 F0 FF 03 10 F0 FF ...  returns 0x00 (0001ms, 0082ms total)
T1A04 000:084 JLINK_ReadMem (0xE000EFF0, 0x0010 Bytes, ...) -- CPU is running -- CPU_ReadMem(16 bytes @ 0xE000EFF0) -- Data:  0D 00 00 00 E0 00 00 00 05 00 00 00 B1 00 00 00  returns 0x00 (0002ms, 0084ms total)
T1A04 000:086 JLINK_ReadMem (0xE000EFD0, 0x0020 Bytes, ...) -- CPU is running -- CPU_ReadMem(32 bytes @ 0xE000EFD0) -- Data:  04 00 00 00 00 00 00 00 00 00 00 00 00 00 00 00 ...  returns 0x00 (0001ms, 0085ms total)
T1A04 000:087 JLINK_ReadMem (0xE0001FF0, 0x0010 Bytes, ...) -- CPU is running -- CPU_ReadMem(16 bytes @ 0xE0001FF0) -- Data:  0D 00 00 00 E0 00 00 00 05 00 00 00 B1 00 00 00  returns 0x00 (0001ms, 0086ms total)
T1A04 000:088 JLINK_ReadMem (0xE0001FD0, 0x0020 Bytes, ...) -- CPU is running -- CPU_ReadMem(32 bytes @ 0xE0001FD0) -- Data:  04 00 00 00 00 00 00 00 00 00 00 00 00 00 00 00 ...  returns 0x00 (0002ms, 0088ms total)
T1A04 000:090 JLINK_ReadMem (0xE0002FF0, 0x0010 Bytes, ...) -- CPU is running -- CPU_ReadMem(16 bytes @ 0xE0002FF0) -- Data:  0D 00 00 00 E0 00 00 00 05 00 00 00 B1 00 00 00  returns 0x00 (0001ms, 0089ms total)
T1A04 000:091 JLINK_ReadMem (0xE0002FD0, 0x0020 Bytes, ...) -- CPU is running -- CPU_ReadMem(32 bytes @ 0xE0002FD0) -- Data:  04 00 00 00 00 00 00 00 00 00 00 00 00 00 00 00 ...  returns 0x00 (0001ms, 0090ms total)
T1A04 000:092 JLINK_ReadMem (0xE0000FF0, 0x0010 Bytes, ...) -- CPU is running -- CPU_ReadMem(16 bytes @ 0xE0000FF0) -- Data:  0D 00 00 00 E0 00 00 00 05 00 00 00 B1 00 00 00  returns 0x00 (0002ms, 0092ms total)
T1A04 000:094 JLINK_ReadMem (0xE0000FD0, 0x0020 Bytes, ...) -- CPU is running -- CPU_ReadMem(32 bytes @ 0xE0000FD0) -- Data:  04 00 00 00 00 00 00 00 00 00 00 00 00 00 00 00 ...  returns 0x00 (0001ms, 0093ms total)
T1A04 000:095 JLINK_ReadMem (0xE0040FF0, 0x0010 Bytes, ...) -- CPU is running -- CPU_ReadMem(16 bytes @ 0xE0040FF0) -- Data:  0D 00 00 00 90 00 00 00 05 00 00 00 B1 00 00 00  returns 0x00 (0001ms, 0094ms total)
T1A04 000:096 JLINK_ReadMem (0xE0040FD0, 0x0020 Bytes, ...) -- CPU is running -- CPU_ReadMem(32 bytes @ 0xE0040FD0) -- Data:  04 00 00 00 00 00 00 00 00 00 00 00 00 00 00 00 ...  returns 0x00 (0002ms, 0096ms total)
T1A04 000:098 JLINK_ReadMemU32(0xE000ED00, 0x0001 Items, ...) -- CPU is running -- CPU_ReadMem(4 bytes @ 0xE000ED00) -- Data:  30 C2 2F 41  returns 0x01 (0001ms, 0097ms total)
T1A04 000:099 JLINK_SetResetType(JLINKARM_RESET_TYPE_NORMAL)  returns JLINKARM_RESET_TYPE_NORMAL (0000ms, 0097ms total)
T1A04 000:099 JLINK_Reset() -- CPU_WriteMem(4 bytes @ 0xE0002000) (0016ms, 0113ms total)
T1A04 000:115 JLINK_ReadReg(R15)  returns 0x000000A6 (0000ms, 0113ms total)
T1A04 000:115 JLINK_ReadReg(XPSR)  returns 0x01000000 (0000ms, 0113ms total)
T1A04 000:115 JLINK_Halt()  returns 0x00 (0000ms, 0113ms total)
T1A04 000:115 JLINK_IsHalted()  returns TRUE (0000ms, 0113ms total)
T1A04 000:115 JLINK_ReadMemU32(0xE000EDF0, 0x0001 Items, ...) -- CPU_ReadMem(4 bytes @ 0xE000EDF0) -- Data:  03 00 03 00  returns 0x01 (0001ms, 0114ms total)
T1A04 000:116 JLINK_WriteU32(0xE000EDF0, 0xA05F0003) -- CPU_WriteMem(4 bytes @ 0xE000EDF0)  returns 0x00 (0001ms, 0115ms total)
T1A04 000:117 JLINK_WriteU32(0xE000EDFC, 0x01000000) -- CPU_WriteMem(4 bytes @ 0xE000EDFC)  returns 0x00 (0001ms, 0116ms total)
T1A04 000:118 JLINK_GetHWStatus(...)  returns 0x00 (0001ms, 0117ms total)
T1A04 000:119 JLINK_GetNumBPUnits(Type = 0xFFFFFF00)  returns 0x06 (0000ms, 0117ms total)
T1A04 000:119 JLINK_GetNumBPUnits(Type = 0xF0)  returns 0x2000 (0000ms, 0117ms total)
T1A04 000:119 JLINK_GetNumWPUnits()  returns 0x04 (0000ms, 0117ms total)
T1A04 000:119 JLINK_GetSpeed()  returns 0x3E8 (0000ms, 0117ms total)
T1A04 000:119 JLINK_ReadMemU32(0xE000E004, 0x0001 Items, ...) -- CPU_ReadMem(4 bytes @ 0xE000E004) -- Data:  00 00 00 00  returns 0x01 (0001ms, 0118ms total)
T1A04 000:120 JLINK_ReadMemU32(0xE000E004, 0x0001 Items, ...) -- CPU_ReadMem(4 bytes @ 0xE000E004) -- Data:  00 00 00 00  returns 0x01 (0001ms, 0119ms total)
T1A04 000:121 JLINK_WriteMem(0xE0001000, 0x001C Bytes, ...) -- Data:  01 00 00 00 00 00 00 00 00 00 00 00 00 00 00 00 ... -- CPU_WriteMem(28 bytes @ 0xE0001000)  returns 0x1C (0001ms, 0120ms total)
T1A04 000:122 JLINK_ReadMem (0xE0001000, 0x001C Bytes, ...) -- CPU_ReadMem(28 bytes @ 0xE0001000) -- Data:  01 00 00 40 00 00 00 00 00 00 00 00 00 00 00 00 ...  returns 0x00 (0001ms, 0121ms total)
T1A04 000:123 JLINK_ReadReg(R15)  returns 0x000000A6 (0000ms, 0121ms total)
T1A04 000:123 JLINK_ReadReg(XPSR)  returns 0x01000000 (0000ms, 0121ms total)
T1A04 000:185 JLINK_SetResetType(JLINKARM_RESET_TYPE_NORMAL)  returns JLINKARM_RESET_TYPE_NORMAL (0000ms, 0121ms total)
T1A04 000:185 JLINK_Reset() -- CPU_WriteMem(4 bytes @ 0xE0002000) (0015ms, 0136ms total)
T1A04 000:200 JLINK_ReadReg(R15)  returns 0x000000A6 (0000ms, 0136ms total)
T1A04 000:200 JLINK_ReadReg(XPSR)  returns 0x01000000 (0000ms, 0136ms total)
T1A04 000:200 JLINK_ReadMem (0x000000A6, 0x0002 Bytes, ...) -- CPU_ReadMem(2 bytes @ 0x000000A6) -- Data:  98 48  returns 0x00 (0002ms, 0138ms total)
T1A04 000:202 JLINK_ReadMem (0x000000A8, 0x003C Bytes, ...) -- CPU_ReadMem(60 bytes @ 0x000000A8) -- Data:  98 4D 28 60 98 4F 3E 68 70 05 02 D3 C6 F3 02 31 ...  returns 0x00 (0002ms, 0140ms total)
T1A04 000:229 JLINK_ReadMem (0x40090000, 0x0008 Bytes, ...) -- CPU_ReadMem(8 bytes @ 0x40090000) -- Data:  00 00 00 00 00 00 00 00  returns 0x00 (0002ms, 0142ms total)
T1A04 000:231 JLINK_ReadMem (0x40090008, 0x0004 Bytes, ...) -- CPU_ReadMem(4 bytes @ 0x40090008) -- Data:  00 00 00 00  returns 0x00 (0001ms, 0143ms total)
T1A04 000:254 JLINK_ReadMem (0x40028000, 0x003C Bytes, ...) -- CPU_ReadMem(60 bytes @ 0x40028000) -- Data:  00 00 1F 10 00 00 00 00 00 00 00 00 00 02 00 00 ...  returns 0x00 (0002ms, 0145ms total)
T1A04 000:256 JLINK_ReadMem (0x4002803C, 0x0004 Bytes, ...) -- CPU_ReadMem(4 bytes @ 0x4002803C) -- Data:  00 00 00 00  returns 0x00 (0001ms, 0146ms total)
T1A04 000:257 JLINK_ReadMem (0x4002804C, 0x0004 Bytes, ...) -- CPU_ReadMem(4 bytes @ 0x4002804C) -- Data:  00 00 00 00  returns 0x00 (0001ms, 0147ms total)
T1A04 000:276 JLINK_ReadMem (0x400B8000, 0x001C Bytes, ...) -- CPU_ReadMem(28 bytes @ 0x400B8000) -- Data:  00 00 00 00 00 00 00 00 00 00 00 00 00 00 00 00 ...  returns 0x00 (0002ms, 0149ms total)
T1A04 000:278 JLINK_ReadMem (0x400B801C, 0x0004 Bytes, ...) -- CPU_ReadMem(4 bytes @ 0x400B801C) -- Data:  00 00 00 00  returns 0x00 (0001ms, 0150ms total)
T1A04 000:297 JLINK_ReadMem (0x400C8000, 0x001C Bytes, ...) -- CPU_ReadMem(28 bytes @ 0x400C8000) -- Data:  FF FF 00 00 00 00 00 00 00 00 00 00 00 00 00 00 ...  returns 0x00 (0001ms, 0151ms total)
T1A04 000:298 JLINK_ReadMem (0x400C801C, 0x0004 Bytes, ...) -- CPU_ReadMem(4 bytes @ 0x400C801C) -- Data:  00 00 00 00  returns 0x00 (0001ms, 0152ms total)
T1A04 000:317 JLINK_ReadMem (0x40020000, 0x002C Bytes, ...) -- CPU_ReadMem(44 bytes @ 0x40020000) -- Data:  04 00 00 00 0C 09 00 00 01 00 00 00 06 01 00 00 ...  returns 0x00 (0002ms, 0154ms total)
T1A04 000:319 JLINK_ReadMem (0x4002002C, 0x0004 Bytes, ...) -- CPU_ReadMem(4 bytes @ 0x4002002C) -- Data:  00 00 00 00  returns 0x00 (0002ms, 0156ms total)
T1A04 000:955 JLINK_ReadMem (0x20000480, 0x00C8 Bytes, ...) -- CPU_ReadMem(200 bytes @ 0x20000480) -- Data:  C7 00 00 20 08 00 09 40 31 06 00 D5 00 00 00 00 ...  returns 0x00 (0004ms, 0160ms total)
T1A04 000:972 JLINK_ReadMem (0x080002D8, 0x003C Bytes, ...) -- CPU_ReadMem(60 bytes @ 0x080002D8) -- Data:  4F F4 3F 60 4F F0 E0 21 48 61 08 46 00 69 40 F0 ...  returns 0x00 (0002ms, 0162ms total)
T1C7C 001:105 JLINK_SetBPEx(Addr = 0x08000414, Type = 0xFFFFFFF2)  returns 0x00000001 (0001ms, 0163ms total)
T1C7C 001:106 JLINK_SetBPEx(Addr = 0x080002F0, Type = 0xFFFFFFF2)  returns 0x00000002 (0000ms, 0163ms total)
T1C7C 001:106 JLINK_Go() -- CPU_WriteMem(4 bytes @ 0xE0002008) -- CPU_WriteMem(4 bytes @ 0xE000200C) -- CPU_WriteMem(4 bytes @ 0xE0002010) -- CPU_WriteMem(4 bytes @ 0xE0002014) -- CPU_WriteMem(4 bytes @ 0xE0002018) -- CPU_WriteMem(4 bytes @ 0xE000201C) (0006ms, 0169ms total)
T1C7C 001:214 JLINK_IsHalted()  returns TRUE (0007ms, 0176ms total)
T1C7C 001:221 JLINK_Halt()  returns 0x00 (0000ms, 0169ms total)
T1C7C 001:221 JLINK_IsHalted()  returns TRUE (0000ms, 0169ms total)
T1C7C 001:221 JLINK_IsHalted()  returns TRUE (0000ms, 0169ms total)
T1C7C 001:221 JLINK_IsHalted()  returns TRUE (0000ms, 0169ms total)
T1C7C 001:221 JLINK_ReadReg(R15)  returns 0x08000414 (0000ms, 0169ms total)
T1C7C 001:221 JLINK_ReadReg(XPSR)  returns 0x21000000 (0000ms, 0169ms total)
T1C7C 001:221 JLINK_ClrBPEx(BPHandle = 0x00000001)  returns 0x00 (0000ms, 0169ms total)
T1C7C 001:221 JLINK_ClrBPEx(BPHandle = 0x00000002)  returns 0x00 (0000ms, 0169ms total)
T1C7C 001:221 JLINK_ReadMemU32(0xE000ED30, 0x0001 Items, ...) -- CPU_ReadMem(4 bytes @ 0xE000ED30) -- Data:  0B 00 00 00  returns 0x01 (0001ms, 0170ms total)
T1C7C 001:222 JLINK_ReadMemU32(0xE0001028, 0x0001 Items, ...) -- CPU_ReadMem(4 bytes @ 0xE0001028) -- Data:  00 00 00 00  returns 0x01 (0001ms, 0171ms total)
T1C7C 001:223 JLINK_ReadMemU32(0xE0001038, 0x0001 Items, ...) -- CPU_ReadMem(4 bytes @ 0xE0001038) -- Data:  00 02 00 00  returns 0x01 (0001ms, 0172ms total)
T1C7C 001:224 JLINK_ReadMemU32(0xE0001048, 0x0001 Items, ...) -- CPU_ReadMem(4 bytes @ 0xE0001048) -- Data:  00 00 00 00  returns 0x01 (0001ms, 0173ms total)
T1C7C 001:225 JLINK_ReadMemU32(0xE0001058, 0x0001 Items, ...) -- CPU_ReadMem(4 bytes @ 0xE0001058) -- Data:  00 00 00 00  returns 0x01 (0001ms, 0174ms total)
T1C7C 001:226 JLINK_ReadReg(R0)  returns 0x200004F0 (0000ms, 0174ms total)
T1C7C 001:226 JLINK_ReadReg(R1)  returns 0x200006F0 (0000ms, 0174ms total)
T1C7C 001:226 JLINK_ReadReg(R2)  returns 0x200006F0 (0000ms, 0174ms total)
T1C7C 001:226 JLINK_ReadReg(R3)  returns 0x200006F0 (0000ms, 0174ms total)
T1C7C 001:226 JLINK_ReadReg(R4)  returns 0x00000000 (0000ms, 0174ms total)
T1C7C 001:226 JLINK_ReadReg(R5)  returns 0x20000490 (0000ms, 0174ms total)
T1C7C 001:226 JLINK_ReadReg(R6)  returns 0x00000000 (0000ms, 0174ms total)
T1C7C 001:226 JLINK_ReadReg(R7)  returns 0x00000000 (0000ms, 0174ms total)
T1C7C 001:226 JLINK_ReadReg(R8)  returns 0x00000000 (0000ms, 0174ms total)
T1C7C 001:226 JLINK_ReadReg(R9)  returns 0x00000000 (0000ms, 0174ms total)
T1C7C 001:226 JLINK_ReadReg(R10)  returns 0x08000460 (0000ms, 0174ms total)
T1C7C 001:226 JLINK_ReadReg(R11)  returns 0x00000000 (0000ms, 0174ms total)
T1C7C 001:226 JLINK_ReadReg(R12)  returns 0x200004D0 (0000ms, 0174ms total)
T1C7C 001:227 JLINK_ReadReg(R13)  returns 0x20000AF0 (0000ms, 0174ms total)
T1C7C 001:227 JLINK_ReadReg(R14)  returns 0x0800014B (0000ms, 0174ms total)
T1C7C 001:227 JLINK_ReadReg(R15)  returns 0x08000414 (0000ms, 0174ms total)
T1C7C 001:227 JLINK_ReadReg(XPSR)  returns 0x21000000 (0000ms, 0174ms total)
T1C7C 001:227 JLINK_ReadReg(MSP)  returns 0x20000AF0 (0000ms, 0174ms total)
T1C7C 001:227 JLINK_ReadReg(PSP)  returns 0x00000000 (0000ms, 0174ms total)
T1C7C 001:227 JLINK_ReadReg(CFBP)  returns 0x00000000 (0000ms, 0174ms total)
T1A04 001:228 JLINK_ReadMemU32(0xE0001004, 0x0001 Items, ...) -- CPU_ReadMem(4 bytes @ 0xE0001004) -- Data:  C6 08 00 00  returns 0x01 (0001ms, 0175ms total)
T1A04 001:229 JLINK_ReadMem (0x20000480, 0x00C8 Bytes, ...) -- CPU_ReadMem(200 bytes @ 0x20000480) -- Data:  00 00 00 00 00 00 00 00 00 00 00 00 00 00 00 00 ...  returns 0x00 (0004ms, 0179ms total)
T1A04 001:233 JLINK_ReadMem (0x40090000, 0x0008 Bytes, ...) -- CPU_ReadMem(8 bytes @ 0x40090000) -- Data:  00 00 00 00 00 00 00 00  returns 0x00 (0001ms, 0180ms total)
T1A04 001:234 JLINK_ReadMem (0x40090008, 0x0004 Bytes, ...) -- CPU_ReadMem(4 bytes @ 0x40090008) -- Data:  00 00 00 00  returns 0x00 (0001ms, 0181ms total)
T1A04 001:235 JLINK_ReadMem (0x400C8000, 0x001C Bytes, ...) -- CPU_ReadMem(28 bytes @ 0x400C8000) -- Data:  00 00 00 00 00 00 00 00 00 00 00 00 00 00 00 00 ...  returns 0x00 (0001ms, 0182ms total)
T1A04 001:236 JLINK_ReadMem (0x400C801C, 0x0004 Bytes, ...) -- CPU_ReadMem(4 bytes @ 0x400C801C) -- Data:  00 00 00 00  returns 0x00 (0001ms, 0183ms total)
T1A04 001:237 JLINK_ReadMem (0x40028000, 0x003C Bytes, ...) -- CPU_ReadMem(60 bytes @ 0x40028000) -- Data:  00 00 00 00 00 00 00 00 00 00 00 00 00 00 00 00 ...  returns 0x00 (0003ms, 0186ms total)
T1A04 001:240 JLINK_ReadMem (0x4002803C, 0x0004 Bytes, ...) -- CPU_ReadMem(4 bytes @ 0x4002803C) -- Data:  00 00 00 00  returns 0x00 (0001ms, 0187ms total)
T1A04 001:241 JLINK_ReadMem (0x4002804C, 0x0004 Bytes, ...) -- CPU_ReadMem(4 bytes @ 0x4002804C) -- Data:  00 00 00 00  returns 0x00 (0001ms, 0188ms total)
T1A04 001:242 JLINK_ReadMem (0x40020000, 0x002C Bytes, ...) -- CPU_ReadMem(44 bytes @ 0x40020000) -- Data:  00 00 00 00 00 00 00 00 00 00 00 00 00 00 00 00 ...  returns 0x00 (0002ms, 0190ms total)
T1A04 001:244 JLINK_ReadMem (0x4002002C, 0x0004 Bytes, ...) -- CPU_ReadMem(4 bytes @ 0x4002002C) -- Data:  00 00 00 00  returns 0x00 (0001ms, 0191ms total)
T1A04 001:245 JLINK_ReadMem (0x400B8000, 0x001C Bytes, ...) -- CPU_ReadMem(28 bytes @ 0x400B8000) -- Data:  00 00 00 00 00 00 00 00 00 00 00 00 00 00 00 00 ...  returns 0x00 (0001ms, 0192ms total)
T1A04 001:246 JLINK_ReadMem (0x400B801C, 0x0004 Bytes, ...) -- CPU_ReadMem(4 bytes @ 0x400B801C) -- Data:  00 00 00 00  returns 0x00 (0001ms, 0193ms total)
T1A04 001:249 JLINK_ReadMem (0x08000414, 0x003C Bytes, ...) -- CPU_ReadMem(128 bytes @ 0x08000400) -- Updating DA cache (128 bytes @ 0x08000400) -- Read from DA cache (60 bytes @ 0x08000414) -- Data:  01 20 09 49 88 60 4F F4 81 70 C8 60 FF F7 F6 FE ...  returns 0x00 (0002ms, 0195ms total)
T1C7C 002:328 JLINK_Step() -- Read from DA cache (2 bytes @ 0x08000414) -- Simulated  returns 0x00 (0001ms, 0196ms total)
T1C7C 002:329 JLINK_ReadReg(R15)  returns 0x08000416 (0000ms, 0196ms total)
T1C7C 002:329 JLINK_ReadReg(XPSR)  returns 0x21000000 (0001ms, 0197ms total)
T1C7C 002:330 JLINK_Step() -- Read from DA cache (2 bytes @ 0x08000416) -- Read from DA cache (4 bytes @ 0x0800043C) -- Simulated  returns 0x00 (0000ms, 0197ms total)
T1C7C 002:330 JLINK_ReadReg(R15)  returns 0x08000418 (0000ms, 0197ms total)
T1C7C 002:330 JLINK_ReadReg(XPSR)  returns 0x21000000 (0000ms, 0197ms total)
T1C7C 002:330 JLINK_Step() -- Read from DA cache (2 bytes @ 0x08000418) -- CPU_WriteMem(4 bytes @ 0x40020008) -- Simulated  returns 0x00 (0000ms, 0197ms total)
T1C7C 002:330 JLINK_ReadReg(R15)  returns 0x0800041A (0000ms, 0197ms total)
T1C7C 002:330 JLINK_ReadReg(XPSR)  returns 0x21000000 (0000ms, 0197ms total)
T1C7C 002:331 JLINK_ReadReg(R0)  returns 0x00000001 (0000ms, 0197ms total)
T1C7C 002:331 JLINK_ReadReg(R1)  returns 0x40020000 (0000ms, 0197ms total)
T1C7C 002:331 JLINK_ReadReg(R2)  returns 0x200006F0 (0000ms, 0197ms total)
T1C7C 002:331 JLINK_ReadReg(R3)  returns 0x200006F0 (0000ms, 0197ms total)
T1C7C 002:331 JLINK_ReadReg(R4)  returns 0x00000000 (0000ms, 0197ms total)
T1C7C 002:331 JLINK_ReadReg(R5)  returns 0x20000490 (0000ms, 0197ms total)
T1C7C 002:331 JLINK_ReadReg(R6)  returns 0x00000000 (0000ms, 0197ms total)
T1C7C 002:331 JLINK_ReadReg(R7)  returns 0x00000000 (0000ms, 0197ms total)
T1C7C 002:331 JLINK_ReadReg(R8)  returns 0x00000000 (0000ms, 0197ms total)
T1C7C 002:331 JLINK_ReadReg(R9)  returns 0x00000000 (0000ms, 0197ms total)
T1C7C 002:331 JLINK_ReadReg(R10)  returns 0x08000460 (0000ms, 0197ms total)
T1C7C 002:331 JLINK_ReadReg(R11)  returns 0x00000000 (0000ms, 0197ms total)
T1C7C 002:331 JLINK_ReadReg(R12)  returns 0x200004D0 (0000ms, 0197ms total)
T1C7C 002:331 JLINK_ReadReg(R13)  returns 0x20000AF0 (0000ms, 0197ms total)
T1C7C 002:331 JLINK_ReadReg(R14)  returns 0x0800014B (0000ms, 0197ms total)
T1C7C 002:331 JLINK_ReadReg(R15)  returns 0x0800041A (0000ms, 0197ms total)
T1C7C 002:331 JLINK_ReadReg(XPSR)  returns 0x21000000 (0000ms, 0197ms total)
T1C7C 002:331 JLINK_ReadReg(MSP)  returns 0x20000AF0 (0000ms, 0197ms total)
T1C7C 002:331 JLINK_ReadReg(PSP)  returns 0x00000000 (0000ms, 0197ms total)
T1C7C 002:331 JLINK_ReadReg(CFBP)  returns 0x00000000 (0000ms, 0197ms total)
T1A04 002:332 JLINK_ReadMemU32(0xE0001004, 0x0001 Items, ...) -- Data:  C6 08 00 00  returns 0x01 (0000ms, 0197ms total)
T1A04 002:332 JLINK_ReadMem (0x20000480, 0x00C8 Bytes, ...) -- CPU_ReadMem(200 bytes @ 0x20000480) -- Data:  00 00 00 00 00 00 00 00 00 00 00 00 00 00 00 00 ...  returns 0x00 (0004ms, 0201ms total)
T1A04 002:337 JLINK_ReadMem (0x40090000, 0x0008 Bytes, ...) -- CPU_ReadMem(8 bytes @ 0x40090000) -- Data:  00 00 00 00 00 00 00 00  returns 0x00 (0001ms, 0202ms total)
T1A04 002:338 JLINK_ReadMem (0x40090008, 0x0004 Bytes, ...) -- CPU_ReadMem(4 bytes @ 0x40090008) -- Data:  00 00 00 00  returns 0x00 (0001ms, 0203ms total)
T1A04 002:339 JLINK_ReadMem (0x400C8000, 0x001C Bytes, ...) -- CPU_ReadMem(28 bytes @ 0x400C8000) -- Data:  00 00 00 00 00 00 00 00 00 00 00 00 00 00 00 00 ...  returns 0x00 (0002ms, 0205ms total)
T1A04 002:341 JLINK_ReadMem (0x400C801C, 0x0004 Bytes, ...) -- CPU_ReadMem(4 bytes @ 0x400C801C) -- Data:  00 00 00 00  returns 0x00 (0000ms, 0205ms total)
T1A04 002:342 JLINK_ReadMem (0x40028000, 0x003C Bytes, ...) -- CPU_ReadMem(60 bytes @ 0x40028000) -- Data:  00 00 00 00 00 00 00 00 00 00 00 00 00 00 00 00 ...  returns 0x00 (0001ms, 0206ms total)
T1A04 002:343 JLINK_ReadMem (0x4002803C, 0x0004 Bytes, ...) -- CPU_ReadMem(4 bytes @ 0x4002803C) -- Data:  00 00 00 00  returns 0x00 (0001ms, 0207ms total)
T1A04 002:344 JLINK_ReadMem (0x4002804C, 0x0004 Bytes, ...) -- CPU_ReadMem(4 bytes @ 0x4002804C) -- Data:  00 00 00 00  returns 0x00 (0001ms, 0208ms total)
T1A04 002:345 JLINK_ReadMem (0x40020000, 0x002C Bytes, ...) -- CPU_ReadMem(44 bytes @ 0x40020000) -- Data:  04 00 00 00 00 00 00 00 01 00 00 00 00 00 00 00 ...  returns 0x00 (0002ms, 0210ms total)
T1A04 002:347 JLINK_ReadMem (0x4002002C, 0x0004 Bytes, ...) -- CPU_ReadMem(4 bytes @ 0x4002002C) -- Data:  00 00 00 00  returns 0x00 (0001ms, 0211ms total)
T1A04 002:348 JLINK_ReadMem (0x400B8000, 0x001C Bytes, ...) -- CPU_ReadMem(28 bytes @ 0x400B8000) -- Data:  00 00 00 00 00 00 00 00 00 00 00 00 00 00 00 00 ...  returns 0x00 (0001ms, 0212ms total)
T1A04 002:349 JLINK_ReadMem (0x400B801C, 0x0004 Bytes, ...) -- CPU_ReadMem(4 bytes @ 0x400B801C) -- Data:  00 00 00 00  returns 0x00 (0001ms, 0213ms total)
T1A04 002:354 JLINK_ReadMem (0x0800041A, 0x0002 Bytes, ...) -- CPU_ReadMem(2 bytes @ 0x0800041A) -- Data:  4F F4  returns 0x00 (0002ms, 0215ms total)
T1A04 002:356 JLINK_ReadMem (0x0800041C, 0x003C Bytes, ...) -- CPU_ReadMem(60 bytes @ 0x0800041C) -- Data:  81 70 C8 60 FF F7 F6 FE FF F7 0C FF 0A 20 FF F7 ...  returns 0x00 (0001ms, 0216ms total)
T1C7C 003:108 JLINK_SetBPEx(Addr = 0x080002F0, Type = 0xFFFFFFF2)  returns 0x00000003 (0000ms, 0216ms total)
T1C7C 003:108 JLINK_Go() -- CPU_WriteMem(4 bytes @ 0xE0002008) -- CPU_WriteMem(4 bytes @ 0xE000200C) (0005ms, 0221ms total)
T1C7C 003:214 JLINK_IsHalted()  returns TRUE (0005ms, 0226ms total)
T1C7C 003:219 JLINK_Halt()  returns 0x00 (0000ms, 0221ms total)
T1C7C 003:219 JLINK_IsHalted()  returns TRUE (0000ms, 0221ms total)
T1C7C 003:219 JLINK_IsHalted()  returns TRUE (0000ms, 0221ms total)
T1C7C 003:219 JLINK_IsHalted()  returns TRUE (0000ms, 0221ms total)
T1C7C 003:219 JLINK_ReadReg(R15)  returns 0x080002F0 (0000ms, 0221ms total)
T1C7C 003:219 JLINK_ReadReg(XPSR)  returns 0x2100000F (0000ms, 0221ms total)
T1C7C 003:219 JLINK_ClrBPEx(BPHandle = 0x00000003)  returns 0x00 (0000ms, 0221ms total)
T1C7C 003:219 JLINK_ReadMemU32(0xE000ED30, 0x0001 Items, ...) -- CPU_ReadMem(4 bytes @ 0xE000ED30) -- Data:  0B 00 00 00  returns 0x01 (0001ms, 0222ms total)
T1C7C 003:220 JLINK_ReadMemU32(0xE0001028, 0x0001 Items, ...) -- CPU_ReadMem(4 bytes @ 0xE0001028) -- Data:  00 00 00 00  returns 0x01 (0000ms, 0222ms total)
T1C7C 003:220 JLINK_ReadMemU32(0xE0001038, 0x0001 Items, ...) -- CPU_ReadMem(4 bytes @ 0xE0001038) -- Data:  00 02 00 00  returns 0x01 (0001ms, 0223ms total)
T1C7C 003:221 JLINK_ReadMemU32(0xE0001048, 0x0001 Items, ...) -- CPU_ReadMem(4 bytes @ 0xE0001048) -- Data:  00 00 00 00  returns 0x01 (0001ms, 0224ms total)
T1C7C 003:222 JLINK_ReadMemU32(0xE0001058, 0x0001 Items, ...) -- CPU_ReadMem(4 bytes @ 0xE0001058) -- Data:  00 00 00 00  returns 0x01 (0001ms, 0225ms total)
T1C7C 003:223 JLINK_ReadReg(R0)  returns 0x00000007 (0000ms, 0225ms total)
T1C7C 003:223 JLINK_ReadReg(R1)  returns 0xE000E000 (0000ms, 0225ms total)
T1C7C 003:223 JLINK_ReadReg(R2)  returns 0x40020000 (0000ms, 0225ms total)
T1C7C 003:224 JLINK_ReadReg(R3)  returns 0x00000004 (0000ms, 0225ms total)
T1C7C 003:224 JLINK_ReadReg(R4)  returns 0x00000000 (0000ms, 0225ms total)
T1C7C 003:224 JLINK_ReadReg(R5)  returns 0x20000490 (0000ms, 0225ms total)
T1C7C 003:224 JLINK_ReadReg(R6)  returns 0x00000000 (0000ms, 0225ms total)
T1C7C 003:224 JLINK_ReadReg(R7)  returns 0x00000000 (0000ms, 0225ms total)
T1C7C 003:224 JLINK_ReadReg(R8)  returns 0x00000000 (0000ms, 0225ms total)
T1C7C 003:224 JLINK_ReadReg(R9)  returns 0x00000000 (0000ms, 0225ms total)
T1C7C 003:224 JLINK_ReadReg(R10)  returns 0x08000460 (0000ms, 0225ms total)
T1C7C 003:224 JLINK_ReadReg(R11)  returns 0x00000000 (0000ms, 0225ms total)
T1C7C 003:224 JLINK_ReadReg(R12)  returns 0x200004D0 (0000ms, 0225ms total)
T1C7C 003:224 JLINK_ReadReg(R13)  returns 0x20000AD0 (0000ms, 0225ms total)
T1C7C 003:224 JLINK_ReadReg(R14)  returns 0xFFFFFFF9 (0000ms, 0225ms total)
T1C7C 003:224 JLINK_ReadReg(R15)  returns 0x080002F0 (0000ms, 0225ms total)
T1C7C 003:224 JLINK_ReadReg(XPSR)  returns 0x2100000F (0000ms, 0225ms total)
T1C7C 003:224 JLINK_ReadReg(MSP)  returns 0x20000AD0 (0000ms, 0225ms total)
T1C7C 003:224 JLINK_ReadReg(PSP)  returns 0x00000000 (0000ms, 0225ms total)
T1C7C 003:224 JLINK_ReadReg(CFBP)  returns 0x00000000 (0000ms, 0225ms total)
T1A04 003:224 JLINK_ReadMemU32(0xE0001004, 0x0001 Items, ...) -- CPU_ReadMem(4 bytes @ 0xE0001004) -- Data:  BC 15 00 00  returns 0x01 (0001ms, 0226ms total)
T1A04 003:225 JLINK_ReadMem (0x20000480, 0x00C8 Bytes, ...) -- CPU_ReadMem(200 bytes @ 0x20000480) -- Data:  C7 00 00 20 08 00 09 40 31 06 00 D5 00 00 00 00 ...  returns 0x00 (0004ms, 0230ms total)
T1A04 003:229 JLINK_ReadMem (0x40090000, 0x0008 Bytes, ...) -- CPU_ReadMem(8 bytes @ 0x40090000) -- Data:  08 00 00 00 00 00 00 00  returns 0x00 (0001ms, 0231ms total)
T1A04 003:230 JLINK_ReadMem (0x40090008, 0x0004 Bytes, ...) -- CPU_ReadMem(4 bytes @ 0x40090008) -- Data:  00 00 00 00  returns 0x00 (0002ms, 0233ms total)
T1A04 003:234 JLINK_ReadMem (0x400C8000, 0x001C Bytes, ...) -- CPU_ReadMem(28 bytes @ 0x400C8000) -- Data:  FF FF 00 00 01 00 00 00 00 00 00 00 00 00 00 00 ...  returns 0x00 (0002ms, 0235ms total)
T1A04 003:236 JLINK_ReadMem (0x400C801C, 0x0004 Bytes, ...) -- CPU_ReadMem(4 bytes @ 0x400C801C) -- Data:  00 00 00 00  returns 0x00 (0001ms, 0236ms total)
T1A04 003:237 JLINK_ReadMem (0x40028000, 0x003C Bytes, ...) -- CPU_ReadMem(60 bytes @ 0x40028000) -- Data:  01 00 1F 10 00 00 00 00 00 04 00 20 00 06 00 20 ...  returns 0x00 (0002ms, 0238ms total)
T1A04 003:239 JLINK_ReadMem (0x4002803C, 0x0004 Bytes, ...) -- CPU_ReadMem(4 bytes @ 0x4002803C) -- Data:  00 00 00 00  returns 0x00 (0001ms, 0239ms total)
T1A04 003:240 JLINK_ReadMem (0x4002804C, 0x0004 Bytes, ...) -- CPU_ReadMem(4 bytes @ 0x4002804C) -- Data:  00 00 00 00  returns 0x00 (0001ms, 0240ms total)
T1A04 003:241 JLINK_ReadMem (0x40020000, 0x002C Bytes, ...) -- CPU_ReadMem(44 bytes @ 0x40020000) -- Data:  04 00 00 00 0C 09 00 00 01 00 00 00 06 01 00 00 ...  returns 0x00 (0002ms, 0242ms total)
T1A04 003:243 JLINK_ReadMem (0x4002002C, 0x0004 Bytes, ...) -- CPU_ReadMem(4 bytes @ 0x4002002C) -- Data:  00 00 00 00  returns 0x00 (0001ms, 0243ms total)
T1A04 003:244 JLINK_ReadMem (0x400B8000, 0x001C Bytes, ...) -- CPU_ReadMem(28 bytes @ 0x400B8000) -- Data:  00 00 00 00 00 00 00 00 00 00 00 00 00 00 00 00 ...  returns 0x00 (0002ms, 0245ms total)
T1A04 003:246 JLINK_ReadMem (0x400B801C, 0x0004 Bytes, ...) -- CPU_ReadMem(4 bytes @ 0x400B801C) -- Data:  00 00 00 00  returns 0x00 (0000ms, 0245ms total)
T1A04 003:249 JLINK_ReadMem (0x080002F0, 0x003C Bytes, ...) -- CPU_ReadMem(128 bytes @ 0x080002C0) -- Updating DA cache (128 bytes @ 0x080002C0) -- Read from DA cache (60 bytes @ 0x080002F0) -- Data:  08 48 80 6F 43 F6 F0 71 08 40 30 B9 06 49 05 48 ...  returns 0x00 (0003ms, 0248ms total)
T1C7C 004:230 JLINK_Step() -- Read from DA cache (2 bytes @ 0x080002F0) -- Read from DA cache (4 bytes @ 0x08000314) -- Simulated  returns 0x00 (0001ms, 0249ms total)
T1C7C 004:231 JLINK_ReadReg(R15)  returns 0x080002F2 (0000ms, 0249ms total)
T1C7C 004:231 JLINK_ReadReg(XPSR)  returns 0x2100000F (0000ms, 0249ms total)
T1C7C 004:231 JLINK_SetBPEx(Addr = 0x080002F0, Type = 0xFFFFFFF2)  returns 0x00000004 (0000ms, 0249ms total)
T1C7C 004:231 JLINK_Go() (0002ms, 0251ms total)
T1C7C 004:334 JLINK_IsHalted()  returns TRUE (0005ms, 0256ms total)
T1C7C 004:339 JLINK_Halt()  returns 0x00 (0000ms, 0251ms total)
T1C7C 004:339 JLINK_IsHalted()  returns TRUE (0000ms, 0251ms total)
T1C7C 004:339 JLINK_IsHalted()  returns TRUE (0000ms, 0251ms total)
T1C7C 004:339 JLINK_IsHalted()  returns TRUE (0000ms, 0251ms total)
T1C7C 004:339 JLINK_ReadReg(R15)  returns 0x080002F0 (0000ms, 0251ms total)
T1C7C 004:339 JLINK_ReadReg(XPSR)  returns 0x2100000F (0000ms, 0251ms total)
T1C7C 004:339 JLINK_ClrBPEx(BPHandle = 0x00000004)  returns 0x00 (0000ms, 0251ms total)
T1C7C 004:339 JLINK_ReadMemU32(0xE000ED30, 0x0001 Items, ...) -- CPU_ReadMem(4 bytes @ 0xE000ED30) -- Data:  0B 00 00 00  returns 0x01 (0001ms, 0252ms total)
T1C7C 004:340 JLINK_ReadMemU32(0xE0001028, 0x0001 Items, ...) -- CPU_ReadMem(4 bytes @ 0xE0001028) -- Data:  00 00 00 00  returns 0x01 (0001ms, 0253ms total)
T1C7C 004:341 JLINK_ReadMemU32(0xE0001038, 0x0001 Items, ...) -- CPU_ReadMem(4 bytes @ 0xE0001038) -- Data:  00 02 00 00  returns 0x01 (0001ms, 0254ms total)
T1C7C 004:342 JLINK_ReadMemU32(0xE0001048, 0x0001 Items, ...) -- CPU_ReadMem(4 bytes @ 0xE0001048) -- Data:  00 00 00 00  returns 0x01 (0001ms, 0255ms total)
T1C7C 004:343 JLINK_ReadMemU32(0xE0001058, 0x0001 Items, ...) -- CPU_ReadMem(4 bytes @ 0xE0001058) -- Data:  00 00 00 00  returns 0x01 (0001ms, 0256ms total)
T1C7C 004:344 JLINK_ReadReg(R0)  returns 0x00000007 (0000ms, 0256ms total)
T1C7C 004:344 JLINK_ReadReg(R1)  returns 0xE000E000 (0000ms, 0256ms total)
T1C7C 004:344 JLINK_ReadReg(R2)  returns 0x40020000 (0000ms, 0256ms total)
T1C7C 004:344 JLINK_ReadReg(R3)  returns 0x00000004 (0000ms, 0256ms total)
T1C7C 004:344 JLINK_ReadReg(R4)  returns 0x00000000 (0000ms, 0256ms total)
T1C7C 004:344 JLINK_ReadReg(R5)  returns 0x20000490 (0000ms, 0256ms total)
T1C7C 004:344 JLINK_ReadReg(R6)  returns 0x00000000 (0000ms, 0256ms total)
T1C7C 004:344 JLINK_ReadReg(R7)  returns 0x00000000 (0000ms, 0256ms total)
T1C7C 004:344 JLINK_ReadReg(R8)  returns 0x00000000 (0000ms, 0256ms total)
T1C7C 004:344 JLINK_ReadReg(R9)  returns 0x00000000 (0000ms, 0256ms total)
T1C7C 004:344 JLINK_ReadReg(R10)  returns 0x08000460 (0000ms, 0256ms total)
T1C7C 004:344 JLINK_ReadReg(R11)  returns 0x00000000 (0000ms, 0256ms total)
T1C7C 004:344 JLINK_ReadReg(R12)  returns 0x200004D0 (0000ms, 0256ms total)
T1C7C 004:344 JLINK_ReadReg(R13)  returns 0x20000AD0 (0000ms, 0256ms total)
T1C7C 004:344 JLINK_ReadReg(R14)  returns 0xFFFFFFF9 (0000ms, 0256ms total)
T1C7C 004:344 JLINK_ReadReg(R15)  returns 0x080002F0 (0000ms, 0256ms total)
T1C7C 004:344 JLINK_ReadReg(XPSR)  returns 0x2100000F (0000ms, 0256ms total)
T1C7C 004:344 JLINK_ReadReg(MSP)  returns 0x20000AD0 (0000ms, 0256ms total)
T1C7C 004:344 JLINK_ReadReg(PSP)  returns 0x00000000 (0000ms, 0256ms total)
T1C7C 004:344 JLINK_ReadReg(CFBP)  returns 0x00000000 (0000ms, 0256ms total)
T1A04 004:344 JLINK_ReadMemU32(0xE0001004, 0x0001 Items, ...) -- CPU_ReadMem(4 bytes @ 0xE0001004) -- Data:  A7 21 00 00  returns 0x01 (0000ms, 0256ms total)
T1A04 004:345 JLINK_ReadMem (0x20000480, 0x00C8 Bytes, ...) -- CPU_ReadMem(200 bytes @ 0x20000480) -- Data:  C7 00 00 20 08 00 09 40 31 06 00 D5 00 00 00 00 ...  returns 0x00 (0004ms, 0260ms total)
T1A04 004:349 JLINK_ReadMem (0x40090000, 0x0008 Bytes, ...) -- CPU_ReadMem(8 bytes @ 0x40090000) -- Data:  08 00 00 00 00 00 00 00  returns 0x00 (0001ms, 0261ms total)
T1A04 004:350 JLINK_ReadMem (0x40090008, 0x0004 Bytes, ...) -- CPU_ReadMem(4 bytes @ 0x40090008) -- Data:  00 00 00 00  returns 0x00 (0002ms, 0263ms total)
T1A04 004:352 JLINK_ReadMem (0x400C8000, 0x001C Bytes, ...) -- CPU_ReadMem(28 bytes @ 0x400C8000) -- Data:  FF FF 00 00 01 00 00 00 00 00 00 00 00 00 00 00 ...  returns 0x00 (0002ms, 0265ms total)
T1A04 004:354 JLINK_ReadMem (0x400C801C, 0x0004 Bytes, ...) -- CPU_ReadMem(4 bytes @ 0x400C801C) -- Data:  00 00 00 00  returns 0x00 (0000ms, 0265ms total)
T1A04 004:355 JLINK_ReadMem (0x40028000, 0x003C Bytes, ...) -- CPU_ReadMem(60 bytes @ 0x40028000) -- Data:  01 00 1F 10 00 00 00 00 00 04 00 20 00 06 00 20 ...  returns 0x00 (0002ms, 0267ms total)
T1A04 004:357 JLINK_ReadMem (0x4002803C, 0x0004 Bytes, ...) -- CPU_ReadMem(4 bytes @ 0x4002803C) -- Data:  00 00 00 00  returns 0x00 (0001ms, 0268ms total)
T1A04 004:358 JLINK_ReadMem (0x4002804C, 0x0004 Bytes, ...) -- CPU_ReadMem(4 bytes @ 0x4002804C) -- Data:  00 00 00 00  returns 0x00 (0001ms, 0269ms total)
T1A04 004:359 JLINK_ReadMem (0x40020000, 0x002C Bytes, ...) -- CPU_ReadMem(44 bytes @ 0x40020000) -- Data:  04 00 00 00 0C 09 00 00 01 00 00 00 06 01 00 00 ...  returns 0x00 (0002ms, 0271ms total)
T1A04 004:361 JLINK_ReadMem (0x4002002C, 0x0004 Bytes, ...) -- CPU_ReadMem(4 bytes @ 0x4002002C) -- Data:  00 00 00 00  returns 0x00 (0000ms, 0271ms total)
T1A04 004:362 JLINK_ReadMem (0x400B8000, 0x001C Bytes, ...) -- CPU_ReadMem(28 bytes @ 0x400B8000) -- Data:  00 00 00 00 00 00 00 00 00 00 00 00 00 00 00 00 ...  returns 0x00 (0001ms, 0272ms total)
T1A04 004:363 JLINK_ReadMem (0x400B801C, 0x0004 Bytes, ...) -- CPU_ReadMem(4 bytes @ 0x400B801C) -- Data:  00 00 00 00  returns 0x00 (0001ms, 0273ms total)
T1C7C 005:363 JLINK_Step() -- CPU_ReadMem(64 bytes @ 0x080002C0) -- Updating DA cache (64 bytes @ 0x080002C0) -- Read from DA cache (2 bytes @ 0x080002F0) -- CPU_ReadMem(64 bytes @ 0x08000300) -- Updating DA cache (64 bytes @ 0x08000300) -- Read from DA cache (4 bytes @ 0x08000314) -- Simulated  returns 0x00 (0005ms, 0278ms total)
T1C7C 005:368 JLINK_ReadReg(R15)  returns 0x080002F2 (0000ms, 0278ms total)
T1C7C 005:368 JLINK_ReadReg(XPSR)  returns 0x2100000F (0000ms, 0278ms total)
T1C7C 005:368 JLINK_SetBPEx(Addr = 0x080002F0, Type = 0xFFFFFFF2)  returns 0x00000005 (0000ms, 0278ms total)
T1C7C 005:368 JLINK_Go() (0002ms, 0280ms total)
T1C7C 005:470 JLINK_IsHalted()  returns TRUE (0006ms, 0286ms total)
T1C7C 005:476 JLINK_Halt()  returns 0x00 (0000ms, 0280ms total)
T1C7C 005:476 JLINK_IsHalted()  returns TRUE (0000ms, 0280ms total)
T1C7C 005:476 JLINK_IsHalted()  returns TRUE (0000ms, 0280ms total)
T1C7C 005:476 JLINK_IsHalted()  returns TRUE (0000ms, 0280ms total)
T1C7C 005:476 JLINK_ReadReg(R15)  returns 0x080002F0 (0000ms, 0280ms total)
T1C7C 005:476 JLINK_ReadReg(XPSR)  returns 0x2100000F (0000ms, 0280ms total)
T1C7C 005:476 JLINK_ClrBPEx(BPHandle = 0x00000005)  returns 0x00 (0000ms, 0280ms total)
T1C7C 005:476 JLINK_ReadMemU32(0xE000ED30, 0x0001 Items, ...) -- CPU_ReadMem(4 bytes @ 0xE000ED30) -- Data:  0B 00 00 00  returns 0x01 (0001ms, 0281ms total)
T1C7C 005:477 JLINK_ReadMemU32(0xE0001028, 0x0001 Items, ...) -- CPU_ReadMem(4 bytes @ 0xE0001028) -- Data:  00 00 00 00  returns 0x01 (0001ms, 0282ms total)
T1C7C 005:478 JLINK_ReadMemU32(0xE0001038, 0x0001 Items, ...) -- CPU_ReadMem(4 bytes @ 0xE0001038) -- Data:  00 02 00 00  returns 0x01 (0002ms, 0284ms total)
T1C7C 005:480 JLINK_ReadMemU32(0xE0001048, 0x0001 Items, ...) -- CPU_ReadMem(4 bytes @ 0xE0001048) -- Data:  00 00 00 00  returns 0x01 (0001ms, 0285ms total)
T1C7C 005:481 JLINK_ReadMemU32(0xE0001058, 0x0001 Items, ...) -- CPU_ReadMem(4 bytes @ 0xE0001058) -- Data:  00 00 00 00  returns 0x01 (0001ms, 0286ms total)
T1C7C 005:482 JLINK_ReadReg(R0)  returns 0x00000007 (0000ms, 0286ms total)
T1C7C 005:482 JLINK_ReadReg(R1)  returns 0xE000E000 (0000ms, 0286ms total)
T1C7C 005:482 JLINK_ReadReg(R2)  returns 0x40020000 (0000ms, 0286ms total)
T1C7C 005:482 JLINK_ReadReg(R3)  returns 0x00000004 (0000ms, 0286ms total)
T1C7C 005:482 JLINK_ReadReg(R4)  returns 0x00000000 (0000ms, 0286ms total)
T1C7C 005:482 JLINK_ReadReg(R5)  returns 0x20000490 (0000ms, 0286ms total)
T1C7C 005:482 JLINK_ReadReg(R6)  returns 0x00000000 (0000ms, 0286ms total)
T1C7C 005:482 JLINK_ReadReg(R7)  returns 0x00000000 (0000ms, 0286ms total)
T1C7C 005:482 JLINK_ReadReg(R8)  returns 0x00000000 (0000ms, 0286ms total)
T1C7C 005:482 JLINK_ReadReg(R9)  returns 0x00000000 (0000ms, 0286ms total)
T1C7C 005:482 JLINK_ReadReg(R10)  returns 0x08000460 (0000ms, 0286ms total)
T1C7C 005:482 JLINK_ReadReg(R11)  returns 0x00000000 (0000ms, 0286ms total)
T1C7C 005:482 JLINK_ReadReg(R12)  returns 0x200004D0 (0000ms, 0286ms total)
T1C7C 005:482 JLINK_ReadReg(R13)  returns 0x20000AD0 (0000ms, 0286ms total)
T1C7C 005:482 JLINK_ReadReg(R14)  returns 0xFFFFFFF9 (0000ms, 0286ms total)
T1C7C 005:482 JLINK_ReadReg(R15)  returns 0x080002F0 (0000ms, 0286ms total)
T1C7C 005:482 JLINK_ReadReg(XPSR)  returns 0x2100000F (0000ms, 0286ms total)
T1C7C 005:482 JLINK_ReadReg(MSP)  returns 0x20000AD0 (0000ms, 0286ms total)
T1C7C 005:482 JLINK_ReadReg(PSP)  returns 0x00000000 (0000ms, 0286ms total)
T1C7C 005:482 JLINK_ReadReg(CFBP)  returns 0x00000000 (0000ms, 0286ms total)
T1A04 005:483 JLINK_ReadMemU32(0xE0001004, 0x0001 Items, ...) -- CPU_ReadMem(4 bytes @ 0xE0001004) -- Data:  92 2D 00 00  returns 0x01 (0001ms, 0287ms total)
T1A04 005:484 JLINK_ReadMem (0x20000480, 0x00C8 Bytes, ...) -- CPU_ReadMem(200 bytes @ 0x20000480) -- Data:  C7 00 00 20 08 00 09 40 31 06 00 D5 00 00 00 00 ...  returns 0x00 (0004ms, 0291ms total)
T1A04 005:489 JLINK_ReadMem (0x40090000, 0x0008 Bytes, ...) -- CPU_ReadMem(8 bytes @ 0x40090000) -- Data:  08 00 00 00 00 00 00 00  returns 0x00 (0001ms, 0292ms total)
T1A04 005:490 JLINK_ReadMem (0x40090008, 0x0004 Bytes, ...) -- CPU_ReadMem(4 bytes @ 0x40090008) -- Data:  00 00 00 00  returns 0x00 (0001ms, 0293ms total)
T1A04 005:491 JLINK_ReadMem (0x400C8000, 0x001C Bytes, ...) -- CPU_ReadMem(28 bytes @ 0x400C8000) -- Data:  FF FF 00 00 01 00 00 00 00 00 00 00 00 00 00 00 ...  returns 0x00 (0001ms, 0294ms total)
T1A04 005:492 JLINK_ReadMem (0x400C801C, 0x0004 Bytes, ...) -- CPU_ReadMem(4 bytes @ 0x400C801C) -- Data:  00 00 00 00  returns 0x00 (0001ms, 0295ms total)
T1A04 005:493 JLINK_ReadMem (0x40028000, 0x003C Bytes, ...) -- CPU_ReadMem(60 bytes @ 0x40028000) -- Data:  01 00 1F 10 00 00 00 00 00 04 00 20 00 06 00 20 ...  returns 0x00 (0002ms, 0297ms total)
T1A04 005:495 JLINK_ReadMem (0x4002803C, 0x0004 Bytes, ...) -- CPU_ReadMem(4 bytes @ 0x4002803C) -- Data:  00 00 00 00  returns 0x00 (0001ms, 0298ms total)
T1A04 005:496 JLINK_ReadMem (0x4002804C, 0x0004 Bytes, ...) -- CPU_ReadMem(4 bytes @ 0x4002804C) -- Data:  00 00 00 00  returns 0x00 (0001ms, 0299ms total)
T1A04 005:497 JLINK_ReadMem (0x40020000, 0x002C Bytes, ...) -- CPU_ReadMem(44 bytes @ 0x40020000) -- Data:  04 00 00 00 0C 09 00 00 01 00 00 00 06 01 00 00 ...  returns 0x00 (0002ms, 0301ms total)
T1A04 005:499 JLINK_ReadMem (0x4002002C, 0x0004 Bytes, ...) -- CPU_ReadMem(4 bytes @ 0x4002002C) -- Data:  00 00 00 00  returns 0x00 (0001ms, 0302ms total)
T1A04 005:500 JLINK_ReadMem (0x400B8000, 0x001C Bytes, ...) -- CPU_ReadMem(28 bytes @ 0x400B8000) -- Data:  00 00 00 00 00 00 00 00 00 00 00 00 00 00 00 00 ...  returns 0x00 (0001ms, 0303ms total)
T1A04 005:501 JLINK_ReadMem (0x400B801C, 0x0004 Bytes, ...) -- CPU_ReadMem(4 bytes @ 0x400B801C) -- Data:  00 00 00 00  returns 0x00 (0001ms, 0304ms total)
T1C7C 005:850 JLINK_Step() -- CPU_ReadMem(64 bytes @ 0x080002C0) -- Updating DA cache (64 bytes @ 0x080002C0) -- Read from DA cache (2 bytes @ 0x080002F0) -- CPU_ReadMem(64 bytes @ 0x08000300) -- Updating DA cache (64 bytes @ 0x08000300) -- Read from DA cache (4 bytes @ 0x08000314) -- Simulated  returns 0x00 (0005ms, 0309ms total)
T1C7C 005:855 JLINK_ReadReg(R15)  returns 0x080002F2 (0000ms, 0309ms total)
T1C7C 005:855 JLINK_ReadReg(XPSR)  returns 0x2100000F (0000ms, 0309ms total)
T1C7C 005:855 JLINK_SetBPEx(Addr = 0x080002F0, Type = 0xFFFFFFF2)  returns 0x00000006 (0000ms, 0309ms total)
T1C7C 005:855 JLINK_Go() (0002ms, 0311ms total)
T1C7C 005:958 JLINK_IsHalted()  returns TRUE (0005ms, 0316ms total)
T1C7C 005:963 JLINK_Halt()  returns 0x00 (0000ms, 0311ms total)
T1C7C 005:963 JLINK_IsHalted()  returns TRUE (0000ms, 0311ms total)
T1C7C 005:963 JLINK_IsHalted()  returns TRUE (0000ms, 0311ms total)
T1C7C 005:963 JLINK_IsHalted()  returns TRUE (0000ms, 0311ms total)
T1C7C 005:963 JLINK_ReadReg(R15)  returns 0x080002F0 (0000ms, 0311ms total)
T1C7C 005:963 JLINK_ReadReg(XPSR)  returns 0x2100000F (0000ms, 0311ms total)
T1C7C 005:963 JLINK_ClrBPEx(BPHandle = 0x00000006)  returns 0x00 (0000ms, 0311ms total)
T1C7C 005:963 JLINK_ReadMemU32(0xE000ED30, 0x0001 Items, ...) -- CPU_ReadMem(4 bytes @ 0xE000ED30) -- Data:  0B 00 00 00  returns 0x01 (0001ms, 0312ms total)
T1C7C 005:964 JLINK_ReadMemU32(0xE0001028, 0x0001 Items, ...) -- CPU_ReadMem(4 bytes @ 0xE0001028) -- Data:  00 00 00 00  returns 0x01 (0001ms, 0313ms total)
T1C7C 005:965 JLINK_ReadMemU32(0xE0001038, 0x0001 Items, ...) -- CPU_ReadMem(4 bytes @ 0xE0001038) -- Data:  00 02 00 00  returns 0x01 (0001ms, 0314ms total)
T1C7C 005:966 JLINK_ReadMemU32(0xE0001048, 0x0001 Items, ...) -- CPU_ReadMem(4 bytes @ 0xE0001048) -- Data:  00 00 00 00  returns 0x01 (0001ms, 0315ms total)
T1C7C 005:967 JLINK_ReadMemU32(0xE0001058, 0x0001 Items, ...) -- CPU_ReadMem(4 bytes @ 0xE0001058) -- Data:  00 00 00 00  returns 0x01 (0001ms, 0316ms total)
T1C7C 005:968 JLINK_ReadReg(R0)  returns 0x00000007 (0000ms, 0316ms total)
T1C7C 005:968 JLINK_ReadReg(R1)  returns 0xE000E000 (0000ms, 0316ms total)
T1C7C 005:968 JLINK_ReadReg(R2)  returns 0x40020000 (0000ms, 0316ms total)
T1C7C 005:968 JLINK_ReadReg(R3)  returns 0x00000004 (0000ms, 0316ms total)
T1C7C 005:968 JLINK_ReadReg(R4)  returns 0x00000000 (0000ms, 0316ms total)
T1C7C 005:968 JLINK_ReadReg(R5)  returns 0x20000490 (0000ms, 0316ms total)
T1C7C 005:968 JLINK_ReadReg(R6)  returns 0x00000000 (0000ms, 0316ms total)
T1C7C 005:968 JLINK_ReadReg(R7)  returns 0x00000000 (0000ms, 0316ms total)
T1C7C 005:968 JLINK_ReadReg(R8)  returns 0x00000000 (0000ms, 0316ms total)
T1C7C 005:968 JLINK_ReadReg(R9)  returns 0x00000000 (0000ms, 0316ms total)
T1C7C 005:968 JLINK_ReadReg(R10)  returns 0x08000460 (0000ms, 0316ms total)
T1C7C 005:968 JLINK_ReadReg(R11)  returns 0x00000000 (0000ms, 0316ms total)
T1C7C 005:968 JLINK_ReadReg(R12)  returns 0x200004D0 (0000ms, 0316ms total)
T1C7C 005:968 JLINK_ReadReg(R13)  returns 0x20000AD0 (0000ms, 0316ms total)
T1C7C 005:968 JLINK_ReadReg(R14)  returns 0xFFFFFFF9 (0000ms, 0316ms total)
T1C7C 005:968 JLINK_ReadReg(R15)  returns 0x080002F0 (0000ms, 0316ms total)
T1C7C 005:968 JLINK_ReadReg(XPSR)  returns 0x2100000F (0000ms, 0316ms total)
T1C7C 005:968 JLINK_ReadReg(MSP)  returns 0x20000AD0 (0000ms, 0316ms total)
T1C7C 005:968 JLINK_ReadReg(PSP)  returns 0x00000000 (0000ms, 0316ms total)
T1C7C 005:968 JLINK_ReadReg(CFBP)  returns 0x00000000 (0000ms, 0316ms total)
T1A04 005:968 JLINK_ReadMemU32(0xE0001004, 0x0001 Items, ...) -- CPU_ReadMem(4 bytes @ 0xE0001004) -- Data:  7D 39 00 00  returns 0x01 (0001ms, 0317ms total)
T1A04 005:969 JLINK_ReadMem (0x20000480, 0x00C8 Bytes, ...) -- CPU_ReadMem(200 bytes @ 0x20000480) -- Data:  C7 00 00 20 08 00 09 40 31 06 00 D5 00 00 00 00 ...  returns 0x00 (0005ms, 0322ms total)
T1A04 005:974 JLINK_ReadMem (0x40090000, 0x0008 Bytes, ...) -- CPU_ReadMem(8 bytes @ 0x40090000) -- Data:  08 00 00 00 00 00 00 00  returns 0x00 (0001ms, 0323ms total)
T1A04 005:975 JLINK_ReadMem (0x40090008, 0x0004 Bytes, ...) -- CPU_ReadMem(4 bytes @ 0x40090008) -- Data:  00 00 00 00  returns 0x00 (0001ms, 0324ms total)
T1A04 005:976 JLINK_ReadMem (0x400C8000, 0x001C Bytes, ...) -- CPU_ReadMem(28 bytes @ 0x400C8000) -- Data:  FF FF 00 00 01 00 00 00 00 00 00 00 00 00 00 00 ...  returns 0x00 (0001ms, 0325ms total)
T1A04 005:977 JLINK_ReadMem (0x400C801C, 0x0004 Bytes, ...) -- CPU_ReadMem(4 bytes @ 0x400C801C) -- Data:  00 00 00 00  returns 0x00 (0001ms, 0326ms total)
T1A04 005:978 JLINK_ReadMem (0x40028000, 0x003C Bytes, ...) -- CPU_ReadMem(60 bytes @ 0x40028000) -- Data:  01 00 1F 10 00 00 00 00 00 04 00 20 00 06 00 20 ...  returns 0x00 (0002ms, 0328ms total)
T1A04 005:980 JLINK_ReadMem (0x4002803C, 0x0004 Bytes, ...) -- CPU_ReadMem(4 bytes @ 0x4002803C) -- Data:  00 00 00 00  returns 0x00 (0001ms, 0329ms total)
T1A04 005:981 JLINK_ReadMem (0x4002804C, 0x0004 Bytes, ...) -- CPU_ReadMem(4 bytes @ 0x4002804C) -- Data:  00 00 00 00  returns 0x00 (0001ms, 0330ms total)
T1A04 005:982 JLINK_ReadMem (0x40020000, 0x002C Bytes, ...) -- CPU_ReadMem(44 bytes @ 0x40020000) -- Data:  04 00 00 00 0C 09 00 00 01 00 00 00 06 01 00 00 ...  returns 0x00 (0001ms, 0331ms total)
T1A04 005:983 JLINK_ReadMem (0x4002002C, 0x0004 Bytes, ...) -- CPU_ReadMem(4 bytes @ 0x4002002C) -- Data:  00 00 00 00  returns 0x00 (0001ms, 0332ms total)
T1A04 005:984 JLINK_ReadMem (0x400B8000, 0x001C Bytes, ...) -- CPU_ReadMem(28 bytes @ 0x400B8000) -- Data:  00 00 00 00 00 00 00 00 00 00 00 00 00 00 00 00 ...  returns 0x00 (0002ms, 0334ms total)
T1A04 005:986 JLINK_ReadMem (0x400B801C, 0x0004 Bytes, ...) -- CPU_ReadMem(4 bytes @ 0x400B801C) -- Data:  00 00 00 00  returns 0x00 (0001ms, 0335ms total)
T1C7C 006:133 JLINK_Step() -- CPU_ReadMem(64 bytes @ 0x080002C0) -- Updating DA cache (64 bytes @ 0x080002C0) -- Read from DA cache (2 bytes @ 0x080002F0) -- CPU_ReadMem(64 bytes @ 0x08000300) -- Updating DA cache (64 bytes @ 0x08000300) -- Read from DA cache (4 bytes @ 0x08000314) -- Simulated  returns 0x00 (0005ms, 0340ms total)
T1C7C 006:138 JLINK_ReadReg(R15)  returns 0x080002F2 (0000ms, 0340ms total)
T1C7C 006:138 JLINK_ReadReg(XPSR)  returns 0x2100000F (0000ms, 0340ms total)
T1C7C 006:138 JLINK_SetBPEx(Addr = 0x080002F0, Type = 0xFFFFFFF2)  returns 0x00000007 (0000ms, 0340ms total)
T1C7C 006:138 JLINK_Go() (0002ms, 0342ms total)
T1C7C 006:241 JLINK_IsHalted()  returns TRUE (0005ms, 0347ms total)
T1C7C 006:246 JLINK_Halt()  returns 0x00 (0000ms, 0342ms total)
T1C7C 006:246 JLINK_IsHalted()  returns TRUE (0000ms, 0342ms total)
T1C7C 006:246 JLINK_IsHalted()  returns TRUE (0000ms, 0342ms total)
T1C7C 006:246 JLINK_IsHalted()  returns TRUE (0000ms, 0342ms total)
T1C7C 006:246 JLINK_ReadReg(R15)  returns 0x080002F0 (0000ms, 0342ms total)
T1C7C 006:246 JLINK_ReadReg(XPSR)  returns 0x2100000F (0000ms, 0342ms total)
T1C7C 006:246 JLINK_ClrBPEx(BPHandle = 0x00000007)  returns 0x00 (0000ms, 0342ms total)
T1C7C 006:246 JLINK_ReadMemU32(0xE000ED30, 0x0001 Items, ...) -- CPU_ReadMem(4 bytes @ 0xE000ED30) -- Data:  0B 00 00 00  returns 0x01 (0002ms, 0344ms total)
T1C7C 006:248 JLINK_ReadMemU32(0xE0001028, 0x0001 Items, ...) -- CPU_ReadMem(4 bytes @ 0xE0001028) -- Data:  00 00 00 00  returns 0x01 (0000ms, 0344ms total)
T1C7C 006:248 JLINK_ReadMemU32(0xE0001038, 0x0001 Items, ...) -- CPU_ReadMem(4 bytes @ 0xE0001038) -- Data:  00 02 00 00  returns 0x01 (0002ms, 0346ms total)
T1C7C 006:250 JLINK_ReadMemU32(0xE0001048, 0x0001 Items, ...) -- CPU_ReadMem(4 bytes @ 0xE0001048) -- Data:  00 00 00 00  returns 0x01 (0001ms, 0347ms total)
T1C7C 006:251 JLINK_ReadMemU32(0xE0001058, 0x0001 Items, ...) -- CPU_ReadMem(4 bytes @ 0xE0001058) -- Data:  00 00 00 00  returns 0x01 (0001ms, 0348ms total)
T1C7C 006:252 JLINK_ReadReg(R0)  returns 0x00000007 (0000ms, 0348ms total)
T1C7C 006:252 JLINK_ReadReg(R1)  returns 0xE000E000 (0000ms, 0348ms total)
T1C7C 006:252 JLINK_ReadReg(R2)  returns 0x40020000 (0000ms, 0348ms total)
T1C7C 006:252 JLINK_ReadReg(R3)  returns 0x00000004 (0000ms, 0348ms total)
T1C7C 006:252 JLINK_ReadReg(R4)  returns 0x00000000 (0000ms, 0348ms total)
T1C7C 006:252 JLINK_ReadReg(R5)  returns 0x20000490 (0000ms, 0348ms total)
T1C7C 006:252 JLINK_ReadReg(R6)  returns 0x00000000 (0000ms, 0348ms total)
T1C7C 006:252 JLINK_ReadReg(R7)  returns 0x00000000 (0000ms, 0348ms total)
T1C7C 006:252 JLINK_ReadReg(R8)  returns 0x00000000 (0000ms, 0348ms total)
T1C7C 006:252 JLINK_ReadReg(R9)  returns 0x00000000 (0000ms, 0348ms total)
T1C7C 006:252 JLINK_ReadReg(R10)  returns 0x08000460 (0000ms, 0348ms total)
T1C7C 006:252 JLINK_ReadReg(R11)  returns 0x00000000 (0000ms, 0348ms total)
T1C7C 006:252 JLINK_ReadReg(R12)  returns 0x200004D0 (0000ms, 0348ms total)
T1C7C 006:252 JLINK_ReadReg(R13)  returns 0x20000AD0 (0000ms, 0348ms total)
T1C7C 006:252 JLINK_ReadReg(R14)  returns 0xFFFFFFF9 (0000ms, 0348ms total)
T1C7C 006:252 JLINK_ReadReg(R15)  returns 0x080002F0 (0000ms, 0348ms total)
T1C7C 006:252 JLINK_ReadReg(XPSR)  returns 0x2100000F (0000ms, 0348ms total)
T1C7C 006:252 JLINK_ReadReg(MSP)  returns 0x20000AD0 (0000ms, 0348ms total)
T1C7C 006:252 JLINK_ReadReg(PSP)  returns 0x00000000 (0000ms, 0348ms total)
T1C7C 006:252 JLINK_ReadReg(CFBP)  returns 0x00000000 (0000ms, 0348ms total)
T1A04 006:252 JLINK_ReadMemU32(0xE0001004, 0x0001 Items, ...) -- CPU_ReadMem(4 bytes @ 0xE0001004) -- Data:  68 45 00 00  returns 0x01 (0001ms, 0349ms total)
T1A04 006:253 JLINK_ReadMem (0x20000480, 0x00C8 Bytes, ...) -- CPU_ReadMem(200 bytes @ 0x20000480) -- Data:  C7 00 00 20 08 00 09 40 31 06 00 D5 00 00 00 00 ...  returns 0x00 (0004ms, 0353ms total)
T1A04 006:258 JLINK_ReadMem (0x40090000, 0x0008 Bytes, ...) -- CPU_ReadMem(8 bytes @ 0x40090000) -- Data:  08 00 00 00 00 00 00 00  returns 0x00 (0002ms, 0355ms total)
T1A04 006:260 JLINK_ReadMem (0x40090008, 0x0004 Bytes, ...) -- CPU_ReadMem(4 bytes @ 0x40090008) -- Data:  00 00 00 00  returns 0x00 (0001ms, 0356ms total)
T1A04 006:261 JLINK_ReadMem (0x400C8000, 0x001C Bytes, ...) -- CPU_ReadMem(28 bytes @ 0x400C8000) -- Data:  FF FF 00 00 01 00 00 00 00 00 00 00 00 00 00 00 ...  returns 0x00 (0001ms, 0357ms total)
T1A04 006:262 JLINK_ReadMem (0x400C801C, 0x0004 Bytes, ...) -- CPU_ReadMem(4 bytes @ 0x400C801C) -- Data:  00 00 00 00  returns 0x00 (0001ms, 0358ms total)
T1A04 006:263 JLINK_ReadMem (0x40028000, 0x003C Bytes, ...) -- CPU_ReadMem(60 bytes @ 0x40028000) -- Data:  01 00 1F 10 00 00 00 00 00 04 00 20 00 06 00 20 ...  returns 0x00 (0002ms, 0360ms total)
T1A04 006:265 JLINK_ReadMem (0x4002803C, 0x0004 Bytes, ...) -- CPU_ReadMem(4 bytes @ 0x4002803C) -- Data:  00 00 00 00  returns 0x00 (0001ms, 0361ms total)
T1A04 006:266 JLINK_ReadMem (0x4002804C, 0x0004 Bytes, ...) -- CPU_ReadMem(4 bytes @ 0x4002804C) -- Data:  00 00 00 00  returns 0x00 (0001ms, 0362ms total)
